[2021-06-08 04:54:44 EDT] vlib work && vlog '-timescale' '1ns/1ns' '-sv2k9' +incdir+$RIVIERA_HOME/vlib/uvm-1.2/src -l uvm_1_2 -err VCP2947 W9 -err VCP2974 W9 -err VCP3003 W9 -err VCP5417 W9 -err VCP6120 W9 -err VCP7862 W9 -err VCP2129 W9 design.sv testbench.sv  && vsim -c -do "vsim +access+r; run -all; exit"  
VSIMSA: Configuration file changed: `/home/runner/library.cfg'
ALIB: Library "work" attached.
work = /home/runner/work/work.lib
MESSAGE "Pass 1. Scanning modules hierarchy."
MESSAGE_SP VCP2124 "Package uvm_pkg found in library uvm_1_2."
MESSAGE "Pass 2. Processing instantiations."
MESSAGE "Pass 3. Processing behavioral statements."
MESSAGE "Running Assertions Compiler."
MESSAGE "Running Optimizer."
MESSAGE "ELB/DAG code generating."
MESSAGE "Unit top modules: top."
MESSAGE "$root top modules: top."
SUCCESS "Compile success 0 Errors 0 Warnings  Analysis time: 7[s]."
ALOG: Warning: The source is compiled without the -dbg switch. Line breakpoints and assertion debug will not be available.
done
# Aldec, Inc. Riviera-PRO version 2020.04.130.7729 built for Linux64 on June 10, 2020.
# HDL, SystemC, and Assertions simulator, debugger, and design environment.
# (c) 1999-2020 Aldec, Inc. All rights reserved.
# ELBREAD: Elaboration process.
# ELBREAD: Warning: Package 'uvm_pkg' does not have a `timescale directive, but previous modules do.
# ELBREAD: Elaboration time 0.7 [s].
# KERNEL: Main thread initiated.
# KERNEL: Kernel process initialization phase.
# ELAB2: Elaboration final pass...
# KERNEL: PLI/VHPI kernel's engine initialization done.
# PLI: Loading library '/usr/share/Riviera-PRO/bin/libsystf.so'
# ELAB2: Create instances ...
# KERNEL: Info: Loading library:  /usr/share/Riviera-PRO/bin/uvm_1_2_dpi
# KERNEL: Time resolution set to 1ns.
# ELAB2: Create instances complete.
# SLP: Started
# SLP: Elaboration phase ...
# SLP: Elaboration phase ... done : 0.1 [s]
# SLP: Generation phase ...
# SLP: Generation phase ... done : 0.2 [s]
# SLP: Finished : 0.3 [s]
# SLP: 0 primitives and 2 (22.22%) other processes in SLP
# SLP: 10 (0.03%) signals in SLP and 784 (2.27%) interface signals
# ELAB2: Elaboration final pass complete - time: 3.5 [s].
# KERNEL: SLP loading done - time: 0.0 [s].
# KERNEL: Warning: You are using the Riviera-PRO EDU Edition. The performance of simulation is reduced.
# KERNEL: Warning: Contact Aldec for available upgrade options - sales@aldec.com.
# KERNEL: SLP simulation initialization done - time: 0.0 [s].
# KERNEL: Kernel process initialization done.
# Allocation: Simulator allocated 31516 kB (elbread=2314 elab2=23866 kernel=5335 sdf=0)
# KERNEL: UVM_INFO /home/build/vlib1/vlib/uvm-1.2/src/base/uvm_root.svh(392) @ 0: reporter [UVM/RELNOTES] 
# KERNEL: ----------------------------------------------------------------
# KERNEL: UVM-1.2
# KERNEL: (C) 2007-2014 Mentor Graphics Corporation
# KERNEL: (C) 2007-2014 Cadence Design Systems, Inc.
# KERNEL: (C) 2006-2014 Synopsys, Inc.
# KERNEL: (C) 2011-2013 Cypress Semiconductor Corp.
# KERNEL: (C) 2013-2014 NVIDIA Corporation
# KERNEL: ----------------------------------------------------------------
# KERNEL: 
# KERNEL:   ***********       IMPORTANT RELEASE NOTES         ************
# KERNEL: 
# KERNEL:   You are using a version of the UVM library that has been compiled
# KERNEL:   with `UVM_NO_DEPRECATED undefined.
# KERNEL:   See http://www.eda.org/svdb/view.php?id=3313 for more details.
# KERNEL: 
# KERNEL:   You are using a version of the UVM library that has been compiled
# KERNEL:   with `UVM_OBJECT_DO_NOT_NEED_CONSTRUCTOR undefined.
# KERNEL:   See http://www.eda.org/svdb/view.php?id=3770 for more details.
# KERNEL: 
# KERNEL:       (Specify +UVM_NO_RELNOTES to turn off this notice)
# KERNEL: 
# KERNEL: ASDB file was created in location /home/runner/dataset.asdb
# KERNEL: UVM_INFO @ 0: reporter [RNTST] Running test axi_base_test...
# KERNEL: $$$$$$$$$$$$$$$$$ {"e_cfg" 356} 1 1 1 1 1 {<class handle>} {<class handle>}
# KERNEL: ##########################################1
# KERNEL: UVM_INFO /home/build/vlib1/vlib/uvm-1.2/src/base/uvm_root.svh(583) @ 0: reporter [UVMTOP] UVM testbench topology:
# KERNEL: --------------------------------------------------------------------
# KERNEL: Name                         Type                        Size  Value
# KERNEL: --------------------------------------------------------------------
# KERNEL: uvm_test_top                 axi_base_test               -     @343 
# KERNEL:   envh                       axi_tb                      -     @365 
# KERNEL:     m_agenth_top             master_agent_top            -     @375 
# KERNEL:       m_agenth[0]            master_agent                -     @526 
# KERNEL:         drvh                 master_driver               -     @556 
# KERNEL:           rsp_port           uvm_analysis_port           -     @575 
# KERNEL:           seq_item_port      uvm_seq_item_pull_port      -     @565 
# KERNEL:         m_sequencer          master_sequencer            -     @585 
# KERNEL:           rsp_export         uvm_analysis_export         -     @594 
# KERNEL:           seq_item_export    uvm_seq_item_pull_imp       -     @712 
# KERNEL:           arbitration_queue  array                       0     -    
# KERNEL:           lock_queue         array                       0     -    
# KERNEL:           num_last_reqs      integral                    32    'd1  
# KERNEL:           num_last_rsps      integral                    32    'd1  
# KERNEL:         monh                 master_monitor              -     @537 
# KERNEL:           monitor_port       uvm_analysis_port           -     @546 
# KERNEL:     s_agenth_top             slave_agent_top             -     @385 
# KERNEL:       s_agenth[0]            slave_agent                 -     @729 
# KERNEL:         drvh                 slave_driver                -     @763 
# KERNEL:           rsp_port           uvm_analysis_port           -     @782 
# KERNEL:           seq_item_port      uvm_seq_item_pull_port      -     @772 
# KERNEL:         m_sequencer          slave_sequencer             -     @792 
# KERNEL:           rsp_export         uvm_analysis_export         -     @801 
# KERNEL:           seq_item_export    uvm_seq_item_pull_imp       -     @919 
# KERNEL:           arbitration_queue  array                       0     -    
# KERNEL:           lock_queue         array                       0     -    
# KERNEL:           num_last_reqs      integral                    32    'd1  
# KERNEL:           num_last_rsps      integral                    32    'd1  
# KERNEL:         monh                 slave_monitor               -     @744 
# KERNEL:           monitor_port       uvm_analysis_port           -     @753 
# KERNEL:     sb                       axi_scoreboard              -     @395 
# KERNEL:       fifo_master            uvm_tlm_analysis_fifo #(T)  -     @404 
# KERNEL:         analysis_export      uvm_analysis_imp            -     @453 
# KERNEL:         get_ap               uvm_analysis_port           -     @443 
# KERNEL:         get_peek_export      uvm_get_peek_imp            -     @423 
# KERNEL:         put_ap               uvm_analysis_port           -     @433 
# KERNEL:         put_export           uvm_put_imp                 -     @413 
# KERNEL:       fifo_slave             uvm_tlm_analysis_fifo #(T)  -     @463 
# KERNEL:         analysis_export      uvm_analysis_imp            -     @512 
# KERNEL:         get_ap               uvm_analysis_port           -     @502 
# KERNEL:         get_peek_export      uvm_get_peek_imp            -     @482 
# KERNEL:         put_ap               uvm_analysis_port           -     @492 
# KERNEL:         put_export           uvm_put_imp                 -     @472 
# KERNEL: --------------------------------------------------------------------
# KERNEL: 
# KERNEL: UVM_INFO /home/runner/slave_monitor.sv(56) @ 0: uvm_test_top.envh.s_agenth_top.s_agenth[0].monh [SLAVE_MONITOR] This is SLAVE monitor run_phase
# KERNEL: UVM_INFO /home/build/vlib1/vlib/uvm-1.2/src/base/uvm_root.svh(583) @ 0: reporter [UVMTOP] UVM testbench topology:
# KERNEL: --------------------------------------------------------------------
# KERNEL: Name                         Type                        Size  Value
# KERNEL: --------------------------------------------------------------------
# KERNEL: uvm_test_top                 axi_base_test               -     @343 
# KERNEL:   envh                       axi_tb                      -     @365 
# KERNEL:     m_agenth_top             master_agent_top            -     @375 
# KERNEL:       m_agenth[0]            master_agent                -     @526 
# KERNEL:         drvh                 master_driver               -     @556 
# KERNEL:           rsp_port           uvm_analysis_port           -     @575 
# KERNEL:           seq_item_port      uvm_seq_item_pull_port      -     @565 
# KERNEL:         m_sequencer          master_sequencer            -     @585 
# KERNEL:           rsp_export         uvm_analysis_export         -     @594 
# KERNEL:           seq_item_export    uvm_seq_item_pull_imp       -     @712 
# KERNEL:           arbitration_queue  array                       0     -    
# KERNEL:           lock_queue         array                       0     -    
# KERNEL:           num_last_reqs      integral                    32    'd1  
# KERNEL:           num_last_rsps      integral                    32    'd1  
# KERNEL:         monh                 master_monitor              -     @537 
# KERNEL:           monitor_port       uvm_analysis_port           -     @546 
# KERNEL:     s_agenth_top             slave_agent_top             -     @385 
# KERNEL:       s_agenth[0]            slave_agent                 -     @729 
# KERNEL:         drvh                 slave_driver                -     @763 
# KERNEL:           rsp_port           uvm_analysis_port           -     @782 
# KERNEL:           seq_item_port      uvm_seq_item_pull_port      -     @772 
# KERNEL:         m_sequencer          slave_sequencer             -     @792 
# KERNEL:           rsp_export         uvm_analysis_export         -     @801 
# KERNEL:           seq_item_export    uvm_seq_item_pull_imp       -     @919 
# KERNEL:           arbitration_queue  array                       0     -    
# KERNEL:           lock_queue         array                       0     -    
# KERNEL:           num_last_reqs      integral                    32    'd1  
# KERNEL:           num_last_rsps      integral                    32    'd1  
# KERNEL:         monh                 slave_monitor               -     @744 
# KERNEL:           monitor_port       uvm_analysis_port           -     @753 
# KERNEL:     sb                       axi_scoreboard              -     @395 
# KERNEL:       fifo_master            uvm_tlm_analysis_fifo #(T)  -     @404 
# KERNEL:         analysis_export      uvm_analysis_imp            -     @453 
# KERNEL:         get_ap               uvm_analysis_port           -     @443 
# KERNEL:         get_peek_export      uvm_get_peek_imp            -     @423 
# KERNEL:         put_ap               uvm_analysis_port           -     @433 
# KERNEL:         put_export           uvm_put_imp                 -     @413 
# KERNEL:       fifo_slave             uvm_tlm_analysis_fifo #(T)  -     @463 
# KERNEL:         analysis_export      uvm_analysis_imp            -     @512 
# KERNEL:         get_ap               uvm_analysis_port           -     @502 
# KERNEL:         get_peek_export      uvm_get_peek_imp            -     @482 
# KERNEL:         put_ap               uvm_analysis_port           -     @492 
# KERNEL:         put_export           uvm_put_imp                 -     @472 
# KERNEL: --------------------------------------------------------------------
# KERNEL: 
# KERNEL: UVM_INFO /home/runner/master_driver.sv(72) @ 0: uvm_test_top.envh.m_agenth_top.m_agenth[0].drvh [MASTER_DRIVER] This is MASTER DRIVER run_phase
# KERNEL: UVM_INFO /home/runner/slave_wbase_seq.sv(30) @ 0: uvm_test_top.envh.s_agenth_top.s_agenth[0].m_sequencer@@seqh2 [SLAVE_WR_SEQUENCE] printing from slave sequence 
# KERNEL:  	------------------------------------------------------------------------------------------------------------------
# KERNEL: Name                           Type             Size  Value                                                       
# KERNEL: ------------------------------------------------------------------------------------------------------------------
# KERNEL: req                            write_xtn_slave  -     @973                                                        
# KERNEL:   begin_time                   time             64    0                                                           
# KERNEL:   depth                        int              32    'd2                                                         
# KERNEL:   parent sequence (name)       string           5     seqh2                                                       
# KERNEL:   parent sequence (full name)  string           60    uvm_test_top.envh.s_agenth_top.s_agenth[0].m_sequencer.seqh2
# KERNEL:   sequencer                    string           54    uvm_test_top.envh.s_agenth_top.s_agenth[0].m_sequencer      
# KERNEL:   AWID                         integral         4     'd0                                                         
# KERNEL:   AWADDR                       integral         32    'd0                                                         
# KERNEL:   AWLEN                        integral         4     'h0                                                         
# KERNEL:   AWBURST                      integral         2     'h0                                                         
# KERNEL:   AWSIZE                       integral         3     'h0                                                         
# KERNEL: ------------------------------------------------------------------------------------------------------------------
# KERNEL: 
# KERNEL: Starting address is 613
# KERNEL: Aligned_AWADDR is 612
# KERNEL: AWSIZE is 1
# KERNEL: Number_Bytes is 2
# KERNEL: Lower_Byte_Lane is 1
# KERNEL: Upper_Byte_Lane is 1
# KERNEL: UVM_INFO /home/runner/master_wbase_seq.sv(32) @ 0: uvm_test_top.envh.m_agenth_top.m_agenth[0].m_sequencer@@seqh1 [MASTER_WR_SEQUENCE] printing from master sequence 
# KERNEL:  -------------------------------------------------------------------------------------------------------------------
# KERNEL: Name                           Type              Size  Value                                                       
# KERNEL: -------------------------------------------------------------------------------------------------------------------
# KERNEL: req                            write_xtn_master  -     @972                                                        
# KERNEL:   begin_time                   time              64    0                                                           
# KERNEL:   depth                        int               32    'd2                                                         
# KERNEL:   parent sequence (name)       string            5     seqh1                                                       
# KERNEL:   parent sequence (full name)  string            60    uvm_test_top.envh.m_agenth_top.m_agenth[0].m_sequencer.seqh1
# KERNEL:   sequencer                    string            54    uvm_test_top.envh.m_agenth_top.m_agenth[0].m_sequencer      
# KERNEL:   AWID                         integral          4     14                                                          
# KERNEL:   AWADDR                       integral          32    'd613                                                       
# KERNEL:   AWLEN                        integral          4     'h9                                                         
# KERNEL:   AWBURST                      integral          2     'h2                                                         
# KERNEL:   AWSIZE                       integral          3     'h5                                                         
# KERNEL:   WDATA[0]                     integral          32    'hce14f75c                                                  
# KERNEL:   WDATA[1]                     integral          32    'h5b8b28d8                                                  
# KERNEL:   WDATA[2]                     integral          32    'h85a6ccbe                                                  
# KERNEL:   WDATA[3]                     integral          32    'h78bf4e1a                                                  
# KERNEL:   WDATA[4]                     integral          32    'h1e8a1285                                                  
# KERNEL:   WDATA[5]                     integral          32    'h9ec4a077                                                  
# KERNEL:   WDATA[6]                     integral          32    'h12facf24                                                  
# KERNEL:   WDATA[7]                     integral          32    'h2fb153e2                                                  
# KERNEL:   WDATA[8]                     integral          32    'hcdcc9804                                                  
# KERNEL:   WDATA[9]                     integral          32    'hae59b9f4                                                  
# KERNEL:   WSTRB[0]                     integral          4     'b10                                                        
# KERNEL:   WSTRB[1]                     integral          4     'b1100                                                      
# KERNEL:   WSTRB[2]                     integral          4     'b11                                                        
# KERNEL:   WSTRB[3]                     integral          4     'b1100                                                      
# KERNEL:   WSTRB[4]                     integral          4     'b11                                                        
# KERNEL:   WSTRB[5]                     integral          4     'b1100                                                      
# KERNEL:   WSTRB[6]                     integral          4     'b11                                                        
# KERNEL:   WSTRB[7]                     integral          4     'b1100                                                      
# KERNEL:   WSTRB[8]                     integral          4     'b11                                                        
# KERNEL:   WSTRB[9]                     integral          4     'b1100                                                      
# KERNEL: -------------------------------------------------------------------------------------------------------------------
# KERNEL: 
# KERNEL: UVM_INFO /home/runner/slave_monitor.sv(166) @ 2050: uvm_test_top.envh.s_agenth_top.s_agenth[0].monh [SLAVE_MONITOR] printing from slave monitor 
# KERNEL:  ----------------------------------------------------
# KERNEL: Name               Type             Size  Value     
# KERNEL: ----------------------------------------------------
# KERNEL: data_rcv[613][14]  write_xtn_slave  -     @1015     
# KERNEL:   AWID             integral         4     'd0       
# KERNEL:   AWADDR           integral         32    'd0       
# KERNEL:   AWLEN            integral         4     'h0       
# KERNEL:   AWBURST          integral         2     'h0       
# KERNEL:   AWSIZE           integral         3     'h0       
# KERNEL:   WDATA[0]         integral         32    'hf700    
# KERNEL:   WDATA[1]         integral         32    'h5b8b0000
# KERNEL:   WDATA[2]         integral         32    'hccbe    
# KERNEL:   WDATA[3]         integral         32    'h78bf0000
# KERNEL:   WDATA[4]         integral         32    'h1285    
# KERNEL:   WDATA[5]         integral         32    'h9ec40000
# KERNEL:   WDATA[6]         integral         32    'hcf24    
# KERNEL:   WDATA[7]         integral         32    'h2fb10000
# KERNEL:   WDATA[8]         integral         32    'h9804    
# KERNEL:   WDATA[9]         integral         32    'hae590000
# KERNEL:   WSTRB[0]         integral         4     'b10      
# KERNEL:   WSTRB[1]         integral         4     'b1100    
# KERNEL:   WSTRB[2]         integral         4     'b11      
# KERNEL:   WSTRB[3]         integral         4     'b1100    
# KERNEL:   WSTRB[4]         integral         4     'b11      
# KERNEL:   WSTRB[5]         integral         4     'b1100    
# KERNEL:   WSTRB[6]         integral         4     'b11      
# KERNEL:   WSTRB[7]         integral         4     'b1100    
# KERNEL:   WSTRB[8]         integral         4     'b11      
# KERNEL:   WSTRB[9]         integral         4     'b1100    
# KERNEL: ----------------------------------------------------
# KERNEL: 
# KERNEL: UVM_INFO /home/runner/master_monitor.sv(109) @ 2050: uvm_test_top.envh.m_agenth_top.m_agenth[0].monh [MASTER_MONITOR] printing from master monitor 
# KERNEL:  -----------------------------------------------------
# KERNEL: Name               Type              Size  Value     
# KERNEL: -----------------------------------------------------
# KERNEL: data_rcv[613][14]  write_xtn_master  -     @1018     
# KERNEL:   AWID             integral          4     'd0       
# KERNEL:   AWADDR           integral          32    'd0       
# KERNEL:   AWLEN            integral          4     'h0       
# KERNEL:   AWBURST          integral          2     'h0       
# KERNEL:   AWSIZE           integral          3     'h0       
# KERNEL:   WSTRB[0]         integral          4     'b10      
# KERNEL:   WSTRB[1]         integral          4     'b1100    
# KERNEL:   WSTRB[2]         integral          4     'b11      
# KERNEL:   WSTRB[3]         integral          4     'b1100    
# KERNEL:   WSTRB[4]         integral          4     'b11      
# KERNEL:   WSTRB[5]         integral          4     'b1100    
# KERNEL:   WSTRB[6]         integral          4     'b11      
# KERNEL:   WSTRB[7]         integral          4     'b1100    
# KERNEL:   WSTRB[8]         integral          4     'b11      
# KERNEL:   WSTRB[9]         integral          4     'b1100    
# KERNEL:   MDATA[0]         integral          32    'hf700    
# KERNEL:   MDATA[1]         integral          32    'h5b8b0000
# KERNEL:   MDATA[2]         integral          32    'hccbe    
# KERNEL:   MDATA[3]         integral          32    'h78bf0000
# KERNEL:   MDATA[4]         integral          32    'h1285    
# KERNEL:   MDATA[5]         integral          32    'h9ec40000
# KERNEL:   MDATA[6]         integral          32    'hcf24    
# KERNEL:   MDATA[7]         integral          32    'h2fb10000
# KERNEL:   MDATA[8]         integral          32    'h9804    
# KERNEL:   MDATA[9]         integral          32    'hae590000
# KERNEL: -----------------------------------------------------
# KERNEL: 
# KERNEL: UVM_INFO /home/runner/slave_wbase_seq.sv(30) @ 10000: uvm_test_top.envh.s_agenth_top.s_agenth[0].m_sequencer@@seqh2 [SLAVE_WR_SEQUENCE] printing from slave sequence 
# KERNEL:  	------------------------------------------------------------------------------------------------------------------
# KERNEL: Name                           Type             Size  Value                                                       
# KERNEL: ------------------------------------------------------------------------------------------------------------------
# KERNEL: req                            write_xtn_slave  -     @1024                                                       
# KERNEL:   begin_time                   time             64    10000                                                       
# KERNEL:   depth                        int              32    'd2                                                         
# KERNEL:   parent sequence (name)       string           5     seqh2                                                       
# KERNEL:   parent sequence (full name)  string           60    uvm_test_top.envh.s_agenth_top.s_agenth[0].m_sequencer.seqh2
# KERNEL:   sequencer                    string           54    uvm_test_top.envh.s_agenth_top.s_agenth[0].m_sequencer      
# KERNEL:   AWID                         integral         4     'd0                                                         
# KERNEL:   AWADDR                       integral         32    'd0                                                         
# KERNEL:   AWLEN                        integral         4     'h0                                                         
# KERNEL:   AWBURST                      integral         2     'h0                                                         
# KERNEL:   AWSIZE                       integral         3     'h0                                                         
# KERNEL: ------------------------------------------------------------------------------------------------------------------
# KERNEL: 
# KERNEL: Starting address is 709
# KERNEL: Aligned_AWADDR is 708
# KERNEL: AWSIZE is 1
# KERNEL: Number_Bytes is 2
# KERNEL: Lower_Byte_Lane is 1
# KERNEL: Upper_Byte_Lane is 1
# KERNEL: UVM_INFO /home/runner/master_wbase_seq.sv(32) @ 10000: uvm_test_top.envh.m_agenth_top.m_agenth[0].m_sequencer@@seqh1 [MASTER_WR_SEQUENCE] printing from master sequence 
# KERNEL:  -------------------------------------------------------------------------------------------------------------------
# KERNEL: Name                           Type              Size  Value                                                       
# KERNEL: -------------------------------------------------------------------------------------------------------------------
# KERNEL: req                            write_xtn_master  -     @1026                                                       
# KERNEL:   begin_time                   time              64    10000                                                       
# KERNEL:   depth                        int               32    'd2                                                         
# KERNEL:   parent sequence (name)       string            5     seqh1                                                       
# KERNEL:   parent sequence (full name)  string            60    uvm_test_top.envh.m_agenth_top.m_agenth[0].m_sequencer.seqh1
# KERNEL:   sequencer                    string            54    uvm_test_top.envh.m_agenth_top.m_agenth[0].m_sequencer      
# KERNEL:   AWID                         integral          4     'd7                                                         
# KERNEL:   AWADDR                       integral          32    'd709                                                       
# KERNEL:   AWLEN                        integral          4     'hb                                                         
# KERNEL:   AWBURST                      integral          2     'h2                                                         
# KERNEL:   AWSIZE                       integral          3     'h5                                                         
# KERNEL:   WDATA[0]                     integral          32    'h5da73a16                                                  
# KERNEL:   WDATA[1]                     integral          32    'h3eb33f09                                                  
# KERNEL:   WDATA[2]                     integral          32    'h46521397                                                  
# KERNEL:   WDATA[3]                     integral          32    'h91ec415                                                   
# KERNEL:   WDATA[4]                     integral          32    'hbfc6bf2c                                                  
# KERNEL:   WDATA[5]                     integral          32    'heca037fd                                                  
# KERNEL:   WDATA[6]                     integral          32    'hf20c86ee                                                  
# KERNEL:   WDATA[7]                     integral          32    'ha12a4429                                                  
# KERNEL:   WDATA[8]                     integral          32    'h2fb2018f                                                  
# KERNEL:   WDATA[9]                     integral          32    'h9ff47c4b                                                  
# KERNEL:   WDATA[10]                    integral          32    'h777f861e                                                  
# KERNEL:   WDATA[11]                    integral          32    'hc8120896                                                  
# KERNEL:   WSTRB[0]                     integral          4     'b10                                                        
# KERNEL:   WSTRB[1]                     integral          4     'b1100                                                      
# KERNEL:   WSTRB[2]                     integral          4     'b11                                                        
# KERNEL:   WSTRB[3]                     integral          4     'b1100                                                      
# KERNEL:   WSTRB[4]                     integral          4     'b11                                                        
# KERNEL:   WSTRB[5]                     integral          4     'b1100                                                      
# KERNEL:   WSTRB[6]                     integral          4     'b11                                                        
# KERNEL:   WSTRB[7]                     integral          4     'b1100                                                      
# KERNEL:   WSTRB[8]                     integral          4     'b11                                                        
# KERNEL:   WSTRB[9]                     integral          4     'b1100                                                      
# KERNEL:   WSTRB[10]                    integral          4     'b11                                                        
# KERNEL:   WSTRB[11]                    integral          4     'b1100                                                      
# KERNEL: -------------------------------------------------------------------------------------------------------------------
# KERNEL: 
# KERNEL: UVM_INFO /home/runner/slave_monitor.sv(166) @ 12090: uvm_test_top.envh.s_agenth_top.s_agenth[0].monh [SLAVE_MONITOR] printing from slave monitor 
# KERNEL:  ---------------------------------------------------
# KERNEL: Name              Type             Size  Value     
# KERNEL: ---------------------------------------------------
# KERNEL: data_rcv[709][7]  write_xtn_slave  -     @1031     
# KERNEL:   AWID            integral         4     'd0       
# KERNEL:   AWADDR          integral         32    'd0       
# KERNEL:   AWLEN           integral         4     'h0       
# KERNEL:   AWBURST         integral         2     'h0       
# KERNEL:   AWSIZE          integral         3     'h0       
# KERNEL:   WDATA[0]        integral         32    'h3a00    
# KERNEL:   WDATA[1]        integral         32    'h3eb30000
# KERNEL:   WDATA[2]        integral         32    'h1397    
# KERNEL:   WDATA[3]        integral         32    'h91e0000 
# KERNEL:   WDATA[4]        integral         32    'hbf2c    
# KERNEL:   WDATA[5]        integral         32    'heca00000
# KERNEL:   WDATA[6]        integral         32    'h86ee    
# KERNEL:   WDATA[7]        integral         32    'ha12a0000
# KERNEL:   WDATA[8]        integral         32    'h18f     
# KERNEL:   WDATA[9]        integral         32    'h9ff40000
# KERNEL:   WDATA[10]       integral         32    'h861e    
# KERNEL:   WDATA[11]       integral         32    'hc8120000
# KERNEL:   WSTRB[0]        integral         4     'b10      
# KERNEL:   WSTRB[1]        integral         4     'b1100    
# KERNEL:   WSTRB[2]        integral         4     'b11      
# KERNEL:   WSTRB[3]        integral         4     'b1100    
# KERNEL:   WSTRB[4]        integral         4     'b11      
# KERNEL:   WSTRB[5]        integral         4     'b1100    
# KERNEL:   WSTRB[6]        integral         4     'b11      
# KERNEL:   WSTRB[7]        integral         4     'b1100    
# KERNEL:   WSTRB[8]        integral         4     'b11      
# KERNEL:   WSTRB[9]        integral         4     'b1100    
# KERNEL:   WSTRB[10]       integral         4     'b11      
# KERNEL:   WSTRB[11]       integral         4     'b1100    
# KERNEL: ---------------------------------------------------
# KERNEL: 
# KERNEL: UVM_INFO /home/runner/master_monitor.sv(109) @ 12090: uvm_test_top.envh.m_agenth_top.m_agenth[0].monh [MASTER_MONITOR] printing from master monitor 
# KERNEL:  ----------------------------------------------------
# KERNEL: Name              Type              Size  Value     
# KERNEL: ----------------------------------------------------
# KERNEL: data_rcv[709][7]  write_xtn_master  -     @1034     
# KERNEL:   AWID            integral          4     'd0       
# KERNEL:   AWADDR          integral          32    'd0       
# KERNEL:   AWLEN           integral          4     'h0       
# KERNEL:   AWBURST         integral          2     'h0       
# KERNEL:   AWSIZE          integral          3     'h0       
# KERNEL:   WSTRB[0]        integral          4     'b10      
# KERNEL:   WSTRB[1]        integral          4     'b1100    
# KERNEL:   WSTRB[2]        integral          4     'b11      
# KERNEL:   WSTRB[3]        integral          4     'b1100    
# KERNEL:   WSTRB[4]        integral          4     'b11      
# KERNEL:   WSTRB[5]        integral          4     'b1100    
# KERNEL:   WSTRB[6]        integral          4     'b11      
# KERNEL:   WSTRB[7]        integral          4     'b1100    
# KERNEL:   WSTRB[8]        integral          4     'b11      
# KERNEL:   WSTRB[9]        integral          4     'b1100    
# KERNEL:   WSTRB[10]       integral          4     'b11      
# KERNEL:   WSTRB[11]       integral          4     'b1100    
# KERNEL:   MDATA[0]        integral          32    'h3a00    
# KERNEL:   MDATA[1]        integral          32    'h3eb30000
# KERNEL:   MDATA[2]        integral          32    'h1397    
# KERNEL:   MDATA[3]        integral          32    'h91e0000 
# KERNEL:   MDATA[4]        integral          32    'hbf2c    
# KERNEL:   MDATA[5]        integral          32    'heca00000
# KERNEL:   MDATA[6]        integral          32    'h86ee    
# KERNEL:   MDATA[7]        integral          32    'ha12a0000
# KERNEL:   MDATA[8]        integral          32    'h18f     
# KERNEL:   MDATA[9]        integral          32    'h9ff40000
# KERNEL:   MDATA[10]       integral          32    'h861e    
# KERNEL:   MDATA[11]       integral          32    'hc8120000
# KERNEL: ----------------------------------------------------
# KERNEL: 
# KERNEL: UVM_INFO /home/runner/slave_wbase_seq.sv(30) @ 20000: uvm_test_top.envh.s_agenth_top.s_agenth[0].m_sequencer@@seqh2 [SLAVE_WR_SEQUENCE] printing from slave sequence 
# KERNEL:  	------------------------------------------------------------------------------------------------------------------
# KERNEL: Name                           Type             Size  Value                                                       
# KERNEL: ------------------------------------------------------------------------------------------------------------------
# KERNEL: req                            write_xtn_slave  -     @1039                                                       
# KERNEL:   begin_time                   time             64    20000                                                       
# KERNEL:   depth                        int              32    'd2                                                         
# KERNEL:   parent sequence (name)       string           5     seqh2                                                       
# KERNEL:   parent sequence (full name)  string           60    uvm_test_top.envh.s_agenth_top.s_agenth[0].m_sequencer.seqh2
# KERNEL:   sequencer                    string           54    uvm_test_top.envh.s_agenth_top.s_agenth[0].m_sequencer      
# KERNEL:   AWID                         integral         4     'd0                                                         
# KERNEL:   AWADDR                       integral         32    'd0                                                         
# KERNEL:   AWLEN                        integral         4     'h0                                                         
# KERNEL:   AWBURST                      integral         2     'h0                                                         
# KERNEL:   AWSIZE                       integral         3     'h0                                                         
# KERNEL: ------------------------------------------------------------------------------------------------------------------
# KERNEL: 
# KERNEL: Starting address is 947
# KERNEL: Aligned_AWADDR is 946
# KERNEL: AWSIZE is 1
# KERNEL: Number_Bytes is 2
# KERNEL: Lower_Byte_Lane is 3
# KERNEL: Upper_Byte_Lane is 3
# KERNEL: UVM_INFO /home/runner/master_wbase_seq.sv(32) @ 20000: uvm_test_top.envh.m_agenth_top.m_agenth[0].m_sequencer@@seqh1 [MASTER_WR_SEQUENCE] printing from master sequence 
# KERNEL:  -------------------------------------------------------------------------------------------------------------------
# KERNEL: Name                           Type              Size  Value                                                       
# KERNEL: -------------------------------------------------------------------------------------------------------------------
# KERNEL: req                            write_xtn_master  -     @1040                                                       
# KERNEL:   begin_time                   time              64    20000                                                       
# KERNEL:   depth                        int               32    'd2                                                         
# KERNEL:   parent sequence (name)       string            5     seqh1                                                       
# KERNEL:   parent sequence (full name)  string            60    uvm_test_top.envh.m_agenth_top.m_agenth[0].m_sequencer.seqh1
# KERNEL:   sequencer                    string            54    uvm_test_top.envh.m_agenth_top.m_agenth[0].m_sequencer      
# KERNEL:   AWID                         integral          4     8                                                           
# KERNEL:   AWADDR                       integral          32    'd947                                                       
# KERNEL:   AWLEN                        integral          4     'hc                                                         
# KERNEL:   AWBURST                      integral          2     'h2                                                         
# KERNEL:   AWSIZE                       integral          3     'h3                                                         
# KERNEL:   WDATA[0]                     integral          32    'h9dcb629a                                                  
# KERNEL:   WDATA[1]                     integral          32    'h22cd3d4a                                                  
# KERNEL:   WDATA[2]                     integral          32    'h9a853a74                                                  
# KERNEL:   WDATA[3]                     integral          32    'h72f75a39                                                  
# KERNEL:   WDATA[4]                     integral          32    'h19094c1a                                                  
# KERNEL:   WDATA[5]                     integral          32    'h747792b1                                                  
# KERNEL:   WDATA[6]                     integral          32    'h8e2ddb32                                                  
# KERNEL:   WDATA[7]                     integral          32    'hb1a4024b                                                  
# KERNEL:   WDATA[8]                     integral          32    'h4d869b0a                                                  
# KERNEL:   WDATA[9]                     integral          32    'h4345475e                                                  
# KERNEL:   WDATA[10]                    integral          32    'hc792d36                                                   
# KERNEL:   WDATA[11]                    integral          32    'h9b273e30                                                  
# KERNEL:   WDATA[12]                    integral          32    'h803a9993                                                  
# KERNEL:   WSTRB[0]                     integral          4     'b1000                                                      
# KERNEL:   WSTRB[1]                     integral          4     'b11                                                        
# KERNEL:   WSTRB[2]                     integral          4     'b1100                                                      
# KERNEL:   WSTRB[3]                     integral          4     'b11                                                        
# KERNEL:   WSTRB[4]                     integral          4     'b1100                                                      
# KERNEL:   WSTRB[5]                     integral          4     'b11                                                        
# KERNEL:   WSTRB[6]                     integral          4     'b1100                                                      
# KERNEL:   WSTRB[7]                     integral          4     'b11                                                        
# KERNEL:   WSTRB[8]                     integral          4     'b1100                                                      
# KERNEL:   WSTRB[9]                     integral          4     'b11                                                        
# KERNEL:   WSTRB[10]                    integral          4     'b1100                                                      
# KERNEL:   WSTRB[11]                    integral          4     'b11                                                        
# KERNEL:   WSTRB[12]                    integral          4     'b1100                                                      
# KERNEL: -------------------------------------------------------------------------------------------------------------------
# KERNEL: 
# KERNEL: UVM_INFO /home/runner/slave_monitor.sv(166) @ 21890: uvm_test_top.envh.s_agenth_top.s_agenth[0].monh [SLAVE_MONITOR] printing from slave monitor 
# KERNEL:  ---------------------------------------------------
# KERNEL: Name              Type             Size  Value     
# KERNEL: ---------------------------------------------------
# KERNEL: data_rcv[947][8]  write_xtn_slave  -     @1045     
# KERNEL:   AWID            integral         4     'd0       
# KERNEL:   AWADDR          integral         32    'd0       
# KERNEL:   AWLEN           integral         4     'h0       
# KERNEL:   AWBURST         integral         2     'h0       
# KERNEL:   AWSIZE          integral         3     'h0       
# KERNEL:   WDATA[0]        integral         32    'h9d000000
# KERNEL:   WDATA[1]        integral         32    'h3d4a    
# KERNEL:   WDATA[2]        integral         32    'h9a850000
# KERNEL:   WDATA[3]        integral         32    'h5a39    
# KERNEL:   WDATA[4]        integral         32    'h19090000
# KERNEL:   WDATA[5]        integral         32    'h92b1    
# KERNEL:   WDATA[6]        integral         32    'h8e2d0000
# KERNEL:   WDATA[7]        integral         32    'h24b     
# KERNEL:   WDATA[8]        integral         32    'h4d860000
# KERNEL:   WDATA[9]        integral         32    'h475e    
# KERNEL:   WDATA[10]       integral         32    'hc790000 
# KERNEL:   WDATA[11]       integral         32    'h3e30    
# KERNEL:   WDATA[12]       integral         32    'h803a0000
# KERNEL:   WSTRB[0]        integral         4     'b1000    
# KERNEL:   WSTRB[1]        integral         4     'b11      
# KERNEL:   WSTRB[2]        integral         4     'b1100    
# KERNEL:   WSTRB[3]        integral         4     'b11      
# KERNEL:   WSTRB[4]        integral         4     'b1100    
# KERNEL:   WSTRB[5]        integral         4     'b11      
# KERNEL:   WSTRB[6]        integral         4     'b1100    
# KERNEL:   WSTRB[7]        integral         4     'b11      
# KERNEL:   WSTRB[8]        integral         4     'b1100    
# KERNEL:   WSTRB[9]        integral         4     'b11      
# KERNEL:   WSTRB[10]       integral         4     'b1100    
# KERNEL:   WSTRB[11]       integral         4     'b11      
# KERNEL:   WSTRB[12]       integral         4     'b1100    
# KERNEL: ---------------------------------------------------
# KERNEL: 
# KERNEL: UVM_INFO /home/runner/master_monitor.sv(109) @ 21890: uvm_test_top.envh.m_agenth_top.m_agenth[0].monh [MASTER_MONITOR] printing from master monitor 
# KERNEL:  ----------------------------------------------------
# KERNEL: Name              Type              Size  Value     
# KERNEL: ----------------------------------------------------
# KERNEL: data_rcv[947][8]  write_xtn_master  -     @1048     
# KERNEL:   AWID            integral          4     'd0       
# KERNEL:   AWADDR          integral          32    'd0       
# KERNEL:   AWLEN           integral          4     'h0       
# KERNEL:   AWBURST         integral          2     'h0       
# KERNEL:   AWSIZE          integral          3     'h0       
# KERNEL:   WSTRB[0]        integral          4     'b1000    
# KERNEL:   WSTRB[1]        integral          4     'b11      
# KERNEL:   WSTRB[2]        integral          4     'b1100    
# KERNEL:   WSTRB[3]        integral          4     'b11      
# KERNEL:   WSTRB[4]        integral          4     'b1100    
# KERNEL:   WSTRB[5]        integral          4     'b11      
# KERNEL:   WSTRB[6]        integral          4     'b1100    
# KERNEL:   WSTRB[7]        integral          4     'b11      
# KERNEL:   WSTRB[8]        integral          4     'b1100    
# KERNEL:   WSTRB[9]        integral          4     'b11      
# KERNEL:   WSTRB[10]       integral          4     'b1100    
# KERNEL:   WSTRB[11]       integral          4     'b11      
# KERNEL:   WSTRB[12]       integral          4     'b1100    
# KERNEL:   MDATA[0]        integral          32    'h9d000000
# KERNEL:   MDATA[1]        integral          32    'h3d4a    
# KERNEL:   MDATA[2]        integral          32    'h9a850000
# KERNEL:   MDATA[3]        integral          32    'h5a39    
# KERNEL:   MDATA[4]        integral          32    'h19090000
# KERNEL:   MDATA[5]        integral          32    'h92b1    
# KERNEL:   MDATA[6]        integral          32    'h8e2d0000
# KERNEL:   MDATA[7]        integral          32    'h24b     
# KERNEL:   MDATA[8]        integral          32    'h4d860000
# KERNEL:   MDATA[9]        integral          32    'h475e    
# KERNEL:   MDATA[10]       integral          32    'hc790000 
# KERNEL:   MDATA[11]       integral          32    'h3e30    
# KERNEL:   MDATA[12]       integral          32    'h803a0000
# KERNEL: ----------------------------------------------------
# KERNEL: 
# KERNEL: UVM_INFO /home/runner/slave_wbase_seq.sv(30) @ 30000: uvm_test_top.envh.s_agenth_top.s_agenth[0].m_sequencer@@seqh2 [SLAVE_WR_SEQUENCE] printing from slave sequence 
# KERNEL:  	------------------------------------------------------------------------------------------------------------------
# KERNEL: Name                           Type             Size  Value                                                       
# KERNEL: ------------------------------------------------------------------------------------------------------------------
# KERNEL: req                            write_xtn_slave  -     @1053                                                       
# KERNEL:   begin_time                   time             64    30000                                                       
# KERNEL:   depth                        int              32    'd2                                                         
# KERNEL:   parent sequence (name)       string           5     seqh2                                                       
# KERNEL:   parent sequence (full name)  string           60    uvm_test_top.envh.s_agenth_top.s_agenth[0].m_sequencer.seqh2
# KERNEL:   sequencer                    string           54    uvm_test_top.envh.s_agenth_top.s_agenth[0].m_sequencer      
# KERNEL:   AWID                         integral         4     'd0                                                         
# KERNEL:   AWADDR                       integral         32    'd0                                                         
# KERNEL:   AWLEN                        integral         4     'h0                                                         
# KERNEL:   AWBURST                      integral         2     'h0                                                         
# KERNEL:   AWSIZE                       integral         3     'h0                                                         
# KERNEL: ------------------------------------------------------------------------------------------------------------------
# KERNEL: 
# KERNEL: Starting address is 271
# KERNEL: Aligned_AWADDR is 270
# KERNEL: AWSIZE is 1
# KERNEL: Number_Bytes is 2
# KERNEL: Lower_Byte_Lane is 3
# KERNEL: Upper_Byte_Lane is 3
# KERNEL: UVM_INFO /home/runner/master_wbase_seq.sv(32) @ 30000: uvm_test_top.envh.m_agenth_top.m_agenth[0].m_sequencer@@seqh1 [MASTER_WR_SEQUENCE] printing from master sequence 
# KERNEL:  -------------------------------------------------------------------------------------------------------------------
# KERNEL: Name                           Type              Size  Value                                                       
# KERNEL: -------------------------------------------------------------------------------------------------------------------
# KERNEL: req                            write_xtn_master  -     @1054                                                       
# KERNEL:   begin_time                   time              64    30000                                                       
# KERNEL:   depth                        int               32    'd2                                                         
# KERNEL:   parent sequence (name)       string            5     seqh1                                                       
# KERNEL:   parent sequence (full name)  string            60    uvm_test_top.envh.m_agenth_top.m_agenth[0].m_sequencer.seqh1
# KERNEL:   sequencer                    string            54    uvm_test_top.envh.m_agenth_top.m_agenth[0].m_sequencer      
# KERNEL:   AWID                         integral          4     'd3                                                         
# KERNEL:   AWADDR                       integral          32    'd271                                                       
# KERNEL:   AWLEN                        integral          4     'he                                                         
# KERNEL:   AWBURST                      integral          2     'h2                                                         
# KERNEL:   AWSIZE                       integral          3     'h7                                                         
# KERNEL:   WDATA[0]                     integral          32    'h6d17dc06                                                  
# KERNEL:   WDATA[1]                     integral          32    'h19645135                                                  
# KERNEL:   WDATA[2]                     integral          32    'h8ce7fd84                                                  
# KERNEL:   WDATA[3]                     integral          32    'h9b386cdb                                                  
# KERNEL:   WDATA[4]                     integral          32    'h2c763d7d                                                  
# KERNEL:   WDATA[5]                     integral          32    'h7bb84ebd                                                  
# KERNEL:   WDATA[6]                     integral          32    'h963ae04b                                                  
# KERNEL:   WDATA[7]                     integral          32    'hf393410c                                                  
# KERNEL:   WDATA[8]                     integral          32    'ha83ace0a                                                  
# KERNEL:   WDATA[9]                     integral          32    'h9316fae2                                                  
# KERNEL:   WDATA[10]                    integral          32    'h649f13f1                                                  
# KERNEL:   WDATA[11]                    integral          32    'h92e57258                                                  
# KERNEL:   WDATA[12]                    integral          32    'h95d55348                                                  
# KERNEL:   WDATA[13]                    integral          32    'hcd931ea4                                                  
# KERNEL:   WDATA[14]                    integral          32    'h95b9debd                                                  
# KERNEL:   WSTRB[0]                     integral          4     'b1000                                                      
# KERNEL:   WSTRB[1]                     integral          4     'b11                                                        
# KERNEL:   WSTRB[2]                     integral          4     'b1100                                                      
# KERNEL:   WSTRB[3]                     integral          4     'b11                                                        
# KERNEL:   WSTRB[4]                     integral          4     'b1100                                                      
# KERNEL:   WSTRB[5]                     integral          4     'b11                                                        
# KERNEL:   WSTRB[6]                     integral          4     'b1100                                                      
# KERNEL:   WSTRB[7]                     integral          4     'b11                                                        
# KERNEL:   WSTRB[8]                     integral          4     'b1100                                                      
# KERNEL:   WSTRB[9]                     integral          4     'b11                                                        
# KERNEL:   WSTRB[10]                    integral          4     'b1100                                                      
# KERNEL:   WSTRB[11]                    integral          4     'b11                                                        
# KERNEL:   WSTRB[12]                    integral          4     'b1100                                                      
# KERNEL:   WSTRB[13]                    integral          4     'b11                                                        
# KERNEL:   WSTRB[14]                    integral          4     'b1100                                                      
# KERNEL: -------------------------------------------------------------------------------------------------------------------
# KERNEL: 
# KERNEL: UVM_INFO /home/runner/slave_monitor.sv(166) @ 32910: uvm_test_top.envh.s_agenth_top.s_agenth[0].monh [SLAVE_MONITOR] printing from slave monitor 
# KERNEL:  ---------------------------------------------------
# KERNEL: Name              Type             Size  Value     
# KERNEL: ---------------------------------------------------
# KERNEL: data_rcv[271][3]  write_xtn_slave  -     @1059     
# KERNEL:   AWID            integral         4     'd0       
# KERNEL:   AWADDR          integral         32    'd0       
# KERNEL:   AWLEN           integral         4     'h0       
# KERNEL:   AWBURST         integral         2     'h0       
# KERNEL:   AWSIZE          integral         3     'h0       
# KERNEL:   WDATA[0]        integral         32    'h6d000000
# KERNEL:   WDATA[1]        integral         32    'h5135    
# KERNEL:   WDATA[2]        integral         32    'h8ce70000
# KERNEL:   WDATA[3]        integral         32    'h6cdb    
# KERNEL:   WDATA[4]        integral         32    'h2c760000
# KERNEL:   WDATA[5]        integral         32    'h4ebd    
# KERNEL:   WDATA[6]        integral         32    'h963a0000
# KERNEL:   WDATA[7]        integral         32    'h410c    
# KERNEL:   WDATA[8]        integral         32    'ha83a0000
# KERNEL:   WDATA[9]        integral         32    'hfae2    
# KERNEL:   WDATA[10]       integral         32    'h649f0000
# KERNEL:   WDATA[11]       integral         32    'h7258    
# KERNEL:   WDATA[12]       integral         32    'h95d50000
# KERNEL:   WDATA[13]       integral         32    'h1ea4    
# KERNEL:   WDATA[14]       integral         32    'h95b90000
# KERNEL:   WSTRB[0]        integral         4     'b1000    
# KERNEL:   WSTRB[1]        integral         4     'b11      
# KERNEL:   WSTRB[2]        integral         4     'b1100    
# KERNEL:   WSTRB[3]        integral         4     'b11      
# KERNEL:   WSTRB[4]        integral         4     'b1100    
# KERNEL:   WSTRB[5]        integral         4     'b11      
# KERNEL:   WSTRB[6]        integral         4     'b1100    
# KERNEL:   WSTRB[7]        integral         4     'b11      
# KERNEL:   WSTRB[8]        integral         4     'b1100    
# KERNEL:   WSTRB[9]        integral         4     'b11      
# KERNEL:   WSTRB[10]       integral         4     'b1100    
# KERNEL:   WSTRB[11]       integral         4     'b11      
# KERNEL:   WSTRB[12]       integral         4     'b1100    
# KERNEL:   WSTRB[13]       integral         4     'b11      
# KERNEL:   WSTRB[14]       integral         4     'b1100    
# KERNEL: ---------------------------------------------------
# KERNEL: 
# KERNEL: UVM_INFO /home/runner/master_monitor.sv(109) @ 32910: uvm_test_top.envh.m_agenth_top.m_agenth[0].monh [MASTER_MONITOR] printing from master monitor 
# KERNEL:  ----------------------------------------------------
# KERNEL: Name              Type              Size  Value     
# KERNEL: ----------------------------------------------------
# KERNEL: data_rcv[271][3]  write_xtn_master  -     @1062     
# KERNEL:   AWID            integral          4     'd0       
# KERNEL:   AWADDR          integral          32    'd0       
# KERNEL:   AWLEN           integral          4     'h0       
# KERNEL:   AWBURST         integral          2     'h0       
# KERNEL:   AWSIZE          integral          3     'h0       
# KERNEL:   WSTRB[0]        integral          4     'b1000    
# KERNEL:   WSTRB[1]        integral          4     'b11      
# KERNEL:   WSTRB[2]        integral          4     'b1100    
# KERNEL:   WSTRB[3]        integral          4     'b11      
# KERNEL:   WSTRB[4]        integral          4     'b1100    
# KERNEL:   WSTRB[5]        integral          4     'b11      
# KERNEL:   WSTRB[6]        integral          4     'b1100    
# KERNEL:   WSTRB[7]        integral          4     'b11      
# KERNEL:   WSTRB[8]        integral          4     'b1100    
# KERNEL:   WSTRB[9]        integral          4     'b11      
# KERNEL:   WSTRB[10]       integral          4     'b1100    
# KERNEL:   WSTRB[11]       integral          4     'b11      
# KERNEL:   WSTRB[12]       integral          4     'b1100    
# KERNEL:   WSTRB[13]       integral          4     'b11      
# KERNEL:   WSTRB[14]       integral          4     'b1100    
# KERNEL:   MDATA[0]        integral          32    'h6d000000
# KERNEL:   MDATA[1]        integral          32    'h5135    
# KERNEL:   MDATA[2]        integral          32    'h8ce70000
# KERNEL:   MDATA[3]        integral          32    'h6cdb    
# KERNEL:   MDATA[4]        integral          32    'h2c760000
# KERNEL:   MDATA[5]        integral          32    'h4ebd    
# KERNEL:   MDATA[6]        integral          32    'h963a0000
# KERNEL:   MDATA[7]        integral          32    'h410c    
# KERNEL:   MDATA[8]        integral          32    'ha83a0000
# KERNEL:   MDATA[9]        integral          32    'hfae2    
# KERNEL:   MDATA[10]       integral          32    'h649f0000
# KERNEL:   MDATA[11]       integral          32    'h7258    
# KERNEL:   MDATA[12]       integral          32    'h95d50000
# KERNEL:   MDATA[13]       integral          32    'h1ea4    
# KERNEL:   MDATA[14]       integral          32    'h95b90000
# KERNEL: ----------------------------------------------------
# KERNEL: 
# KERNEL: UVM_INFO /home/runner/slave_wbase_seq.sv(30) @ 40000: uvm_test_top.envh.s_agenth_top.s_agenth[0].m_sequencer@@seqh2 [SLAVE_WR_SEQUENCE] printing from slave sequence 
# KERNEL:  	------------------------------------------------------------------------------------------------------------------
# KERNEL: Name                           Type             Size  Value                                                       
# KERNEL: ------------------------------------------------------------------------------------------------------------------
# KERNEL: req                            write_xtn_slave  -     @1067                                                       
# KERNEL:   begin_time                   time             64    40000                                                       
# KERNEL:   depth                        int              32    'd2                                                         
# KERNEL:   parent sequence (name)       string           5     seqh2                                                       
# KERNEL:   parent sequence (full name)  string           60    uvm_test_top.envh.s_agenth_top.s_agenth[0].m_sequencer.seqh2
# KERNEL:   sequencer                    string           54    uvm_test_top.envh.s_agenth_top.s_agenth[0].m_sequencer      
# KERNEL:   AWID                         integral         4     'd0                                                         
# KERNEL:   AWADDR                       integral         32    'd0                                                         
# KERNEL:   AWLEN                        integral         4     'h0                                                         
# KERNEL:   AWBURST                      integral         2     'h0                                                         
# KERNEL:   AWSIZE                       integral         3     'h0                                                         
# KERNEL: ------------------------------------------------------------------------------------------------------------------
# KERNEL: 
# KERNEL: Starting address is 859
# KERNEL: Aligned_AWADDR is 858
# KERNEL: AWSIZE is 1
# KERNEL: Number_Bytes is 2
# KERNEL: Lower_Byte_Lane is 3
# KERNEL: Upper_Byte_Lane is 3
# KERNEL: UVM_INFO /home/runner/master_wbase_seq.sv(32) @ 40000: uvm_test_top.envh.m_agenth_top.m_agenth[0].m_sequencer@@seqh1 [MASTER_WR_SEQUENCE] printing from master sequence 
# KERNEL:  -------------------------------------------------------------------------------------------------------------------
# KERNEL: Name                           Type              Size  Value                                                       
# KERNEL: -------------------------------------------------------------------------------------------------------------------
# KERNEL: req                            write_xtn_master  -     @1068                                                       
# KERNEL:   begin_time                   time              64    40000                                                       
# KERNEL:   depth                        int               32    'd2                                                         
# KERNEL:   parent sequence (name)       string            5     seqh1                                                       
# KERNEL:   parent sequence (full name)  string            60    uvm_test_top.envh.m_agenth_top.m_agenth[0].m_sequencer.seqh1
# KERNEL:   sequencer                    string            54    uvm_test_top.envh.m_agenth_top.m_agenth[0].m_sequencer      
# KERNEL:   AWID                         integral          4     'd7                                                         
# KERNEL:   AWADDR                       integral          32    'd859                                                       
# KERNEL:   AWLEN                        integral          4     'hf                                                         
# KERNEL:   AWBURST                      integral          2     'h2                                                         
# KERNEL:   AWSIZE                       integral          3     'h3                                                         
# KERNEL:   WDATA[0]                     integral          32    'h3cc45f01                                                  
# KERNEL:   WDATA[1]                     integral          32    'h59d2e7a5                                                  
# KERNEL:   WDATA[2]                     integral          32    'h4edc4227                                                  
# KERNEL:   WDATA[3]                     integral          32    'h9f57d3bf                                                  
# KERNEL:   WDATA[4]                     integral          32    'h8f5ac4b6                                                  
# KERNEL:   WDATA[5]                     integral          32    'h967caa80                                                  
# KERNEL:   WDATA[6]                     integral          32    'h7fce56d6                                                  
# KERNEL:   WDATA[7]                     integral          32    'h5a7913f0                                                  
# KERNEL:   WDATA[8]                     integral          32    'h41b8d80d                                                  
# KERNEL:   WDATA[9]                     integral          32    'h16e5f0cf                                                  
# KERNEL:   WDATA[10]                    integral          32    'h90e2758d                                                  
# KERNEL:   WDATA[11]                    integral          32    'h742133be                                                  
# KERNEL:   WDATA[12]                    integral          32    'h90a6a6ff                                                  
# KERNEL:   WDATA[13]                    integral          32    'h15e3bedc                                                  
# KERNEL:   WDATA[14]                    integral          32    'hc5376d34                                                  
# KERNEL:   WDATA[15]                    integral          32    'hee64a05a                                                  
# KERNEL:   WSTRB[0]                     integral          4     'b1000                                                      
# KERNEL:   WSTRB[1]                     integral          4     'b11                                                        
# KERNEL:   WSTRB[2]                     integral          4     'b1100                                                      
# KERNEL:   WSTRB[3]                     integral          4     'b11                                                        
# KERNEL:   WSTRB[4]                     integral          4     'b1100                                                      
# KERNEL:   WSTRB[5]                     integral          4     'b11                                                        
# KERNEL:   WSTRB[6]                     integral          4     'b1100                                                      
# KERNEL:   WSTRB[7]                     integral          4     'b11                                                        
# KERNEL:   WSTRB[8]                     integral          4     'b1100                                                      
# KERNEL:   WSTRB[9]                     integral          4     'b11                                                        
# KERNEL:   WSTRB[10]                    integral          4     'b1100                                                      
# KERNEL:   WSTRB[11]                    integral          4     'b11                                                        
# KERNEL:   WSTRB[12]                    integral          4     'b1100                                                      
# KERNEL:   WSTRB[13]                    integral          4     'b11                                                        
# KERNEL:   WSTRB[14]                    integral          4     'b1100                                                      
# KERNEL:   WSTRB[15]                    integral          4     'b11                                                        
# KERNEL: -------------------------------------------------------------------------------------------------------------------
# KERNEL: 
# KERNEL: UVM_INFO /home/runner/slave_monitor.sv(166) @ 43210: uvm_test_top.envh.s_agenth_top.s_agenth[0].monh [SLAVE_MONITOR] printing from slave monitor 
# KERNEL:  ---------------------------------------------------
# KERNEL: Name              Type             Size  Value     
# KERNEL: ---------------------------------------------------
# KERNEL: data_rcv[859][7]  write_xtn_slave  -     @1073     
# KERNEL:   AWID            integral         4     'd0       
# KERNEL:   AWADDR          integral         32    'd0       
# KERNEL:   AWLEN           integral         4     'h0       
# KERNEL:   AWBURST         integral         2     'h0       
# KERNEL:   AWSIZE          integral         3     'h0       
# KERNEL:   WDATA[0]        integral         32    'h3c000000
# KERNEL:   WDATA[1]        integral         32    'he7a5    
# KERNEL:   WDATA[2]        integral         32    'h4edc0000
# KERNEL:   WDATA[3]        integral         32    'hd3bf    
# KERNEL:   WDATA[4]        integral         32    'h8f5a0000
# KERNEL:   WDATA[5]        integral         32    'haa80    
# KERNEL:   WDATA[6]        integral         32    'h7fce0000
# KERNEL:   WDATA[7]        integral         32    'h13f0    
# KERNEL:   WDATA[8]        integral         32    'h41b80000
# KERNEL:   WDATA[9]        integral         32    'hf0cf    
# KERNEL:   WDATA[10]       integral         32    'h90e20000
# KERNEL:   WDATA[11]       integral         32    'h33be    
# KERNEL:   WDATA[12]       integral         32    'h90a60000
# KERNEL:   WDATA[13]       integral         32    'hbedc    
# KERNEL:   WDATA[14]       integral         32    'hc5370000
# KERNEL:   WDATA[15]       integral         32    'ha05a    
# KERNEL:   WSTRB[0]        integral         4     'b1000    
# KERNEL:   WSTRB[1]        integral         4     'b11      
# KERNEL:   WSTRB[2]        integral         4     'b1100    
# KERNEL:   WSTRB[3]        integral         4     'b11      
# KERNEL:   WSTRB[4]        integral         4     'b1100    
# KERNEL:   WSTRB[5]        integral         4     'b11      
# KERNEL:   WSTRB[6]        integral         4     'b1100    
# KERNEL:   WSTRB[7]        integral         4     'b11      
# KERNEL:   WSTRB[8]        integral         4     'b1100    
# KERNEL:   WSTRB[9]        integral         4     'b11      
# KERNEL:   WSTRB[10]       integral         4     'b1100    
# KERNEL:   WSTRB[11]       integral         4     'b11      
# KERNEL:   WSTRB[12]       integral         4     'b1100    
# KERNEL:   WSTRB[13]       integral         4     'b11      
# KERNEL:   WSTRB[14]       integral         4     'b1100    
# KERNEL:   WSTRB[15]       integral         4     'b11      
# KERNEL: ---------------------------------------------------
# KERNEL: 
# KERNEL: UVM_INFO /home/runner/master_monitor.sv(109) @ 43210: uvm_test_top.envh.m_agenth_top.m_agenth[0].monh [MASTER_MONITOR] printing from master monitor 
# KERNEL:  ----------------------------------------------------
# KERNEL: Name              Type              Size  Value     
# KERNEL: ----------------------------------------------------
# KERNEL: data_rcv[859][7]  write_xtn_master  -     @1076     
# KERNEL:   AWID            integral          4     'd0       
# KERNEL:   AWADDR          integral          32    'd0       
# KERNEL:   AWLEN           integral          4     'h0       
# KERNEL:   AWBURST         integral          2     'h0       
# KERNEL:   AWSIZE          integral          3     'h0       
# KERNEL:   WSTRB[0]        integral          4     'b1000    
# KERNEL:   WSTRB[1]        integral          4     'b11      
# KERNEL:   WSTRB[2]        integral          4     'b1100    
# KERNEL:   WSTRB[3]        integral          4     'b11      
# KERNEL:   WSTRB[4]        integral          4     'b1100    
# KERNEL:   WSTRB[5]        integral          4     'b11      
# KERNEL:   WSTRB[6]        integral          4     'b1100    
# KERNEL:   WSTRB[7]        integral          4     'b11      
# KERNEL:   WSTRB[8]        integral          4     'b1100    
# KERNEL:   WSTRB[9]        integral          4     'b11      
# KERNEL:   WSTRB[10]       integral          4     'b1100    
# KERNEL:   WSTRB[11]       integral          4     'b11      
# KERNEL:   WSTRB[12]       integral          4     'b1100    
# KERNEL:   WSTRB[13]       integral          4     'b11      
# KERNEL:   WSTRB[14]       integral          4     'b1100    
# KERNEL:   WSTRB[15]       integral          4     'b11      
# KERNEL:   MDATA[0]        integral          32    'h3c000000
# KERNEL:   MDATA[1]        integral          32    'he7a5    
# KERNEL:   MDATA[2]        integral          32    'h4edc0000
# KERNEL:   MDATA[3]        integral          32    'hd3bf    
# KERNEL:   MDATA[4]        integral          32    'h8f5a0000
# KERNEL:   MDATA[5]        integral          32    'haa80    
# KERNEL:   MDATA[6]        integral          32    'h7fce0000
# KERNEL:   MDATA[7]        integral          32    'h13f0    
# KERNEL:   MDATA[8]        integral          32    'h41b80000
# KERNEL:   MDATA[9]        integral          32    'hf0cf    
# KERNEL:   MDATA[10]       integral          32    'h90e20000
# KERNEL:   MDATA[11]       integral          32    'h33be    
# KERNEL:   MDATA[12]       integral          32    'h90a60000
# KERNEL:   MDATA[13]       integral          32    'hbedc    
# KERNEL:   MDATA[14]       integral          32    'hc5370000
# KERNEL:   MDATA[15]       integral          32    'ha05a    
# KERNEL: ----------------------------------------------------
# KERNEL: 
# KERNEL: UVM_INFO /home/runner/master_monitor.sv(149) @ 43350: uvm_test_top.envh.m_agenth_top.m_agenth[0].monh [MASTER_MONITOR] printing from master monitor according to the response send by slave driver  
# KERNEL:  ----------------------------------------------------
# KERNEL: Name              Type              Size  Value     
# KERNEL: ----------------------------------------------------
# KERNEL: data_rcv[709][7]  write_xtn_master  -     @1034     
# KERNEL:   AWID            integral          4     'd0       
# KERNEL:   AWADDR          integral          32    'd0       
# KERNEL:   AWLEN           integral          4     'h0       
# KERNEL:   AWBURST         integral          2     'h0       
# KERNEL:   AWSIZE          integral          3     'h0       
# KERNEL:   WSTRB[0]        integral          4     'b10      
# KERNEL:   WSTRB[1]        integral          4     'b1100    
# KERNEL:   WSTRB[2]        integral          4     'b11      
# KERNEL:   WSTRB[3]        integral          4     'b1100    
# KERNEL:   WSTRB[4]        integral          4     'b11      
# KERNEL:   WSTRB[5]        integral          4     'b1100    
# KERNEL:   WSTRB[6]        integral          4     'b11      
# KERNEL:   WSTRB[7]        integral          4     'b1100    
# KERNEL:   WSTRB[8]        integral          4     'b11      
# KERNEL:   WSTRB[9]        integral          4     'b1100    
# KERNEL:   WSTRB[10]       integral          4     'b11      
# KERNEL:   WSTRB[11]       integral          4     'b1100    
# KERNEL:   MDATA[0]        integral          32    'h3a00    
# KERNEL:   MDATA[1]        integral          32    'h3eb30000
# KERNEL:   MDATA[2]        integral          32    'h1397    
# KERNEL:   MDATA[3]        integral          32    'h91e0000 
# KERNEL:   MDATA[4]        integral          32    'hbf2c    
# KERNEL:   MDATA[5]        integral          32    'heca00000
# KERNEL:   MDATA[6]        integral          32    'h86ee    
# KERNEL:   MDATA[7]        integral          32    'ha12a0000
# KERNEL:   MDATA[8]        integral          32    'h18f     
# KERNEL:   MDATA[9]        integral          32    'h9ff40000
# KERNEL:   MDATA[10]       integral          32    'h861e    
# KERNEL:   MDATA[11]       integral          32    'hc8120000
# KERNEL: ----------------------------------------------------
# KERNEL: 
# KERNEL: SLAVE A 1
# KERNEL: UVM_INFO /home/runner/slave_monitor.sv(204) @ 43350: uvm_test_top.envh.s_agenth_top.s_agenth[0].monh [SLAVE_MONITOR] printing from slave monitor according to the response send by slave driver  
# KERNEL:  ---------------------------------------------------
# KERNEL: Name              Type             Size  Value     
# KERNEL: ---------------------------------------------------
# KERNEL: data_rcv[709][7]  write_xtn_slave  -     @1031     
# KERNEL:   AWID            integral         4     'd0       
# KERNEL:   AWADDR          integral         32    'd0       
# KERNEL:   AWLEN           integral         4     'h0       
# KERNEL:   AWBURST         integral         2     'h0       
# KERNEL:   AWSIZE          integral         3     'h0       
# KERNEL:   WDATA[0]        integral         32    'h3a00    
# KERNEL:   WDATA[1]        integral         32    'h3eb30000
# KERNEL:   WDATA[2]        integral         32    'h1397    
# KERNEL:   WDATA[3]        integral         32    'h91e0000 
# KERNEL:   WDATA[4]        integral         32    'hbf2c    
# KERNEL:   WDATA[5]        integral         32    'heca00000
# KERNEL:   WDATA[6]        integral         32    'h86ee    
# KERNEL:   WDATA[7]        integral         32    'ha12a0000
# KERNEL:   WDATA[8]        integral         32    'h18f     
# KERNEL:   WDATA[9]        integral         32    'h9ff40000
# KERNEL:   WDATA[10]       integral         32    'h861e    
# KERNEL:   WDATA[11]       integral         32    'hc8120000
# KERNEL:   WSTRB[0]        integral         4     'b10      
# KERNEL:   WSTRB[1]        integral         4     'b1100    
# KERNEL:   WSTRB[2]        integral         4     'b11      
# KERNEL:   WSTRB[3]        integral         4     'b1100    
# KERNEL:   WSTRB[4]        integral         4     'b11      
# KERNEL:   WSTRB[5]        integral         4     'b1100    
# KERNEL:   WSTRB[6]        integral         4     'b11      
# KERNEL:   WSTRB[7]        integral         4     'b1100    
# KERNEL:   WSTRB[8]        integral         4     'b11      
# KERNEL:   WSTRB[9]        integral         4     'b1100    
# KERNEL:   WSTRB[10]       integral         4     'b11      
# KERNEL:   WSTRB[11]       integral         4     'b1100    
# KERNEL: ---------------------------------------------------
# KERNEL: 
# KERNEL: SLAVE A 2
# KERNEL: write_data_receive in sb at time 43350
# KERNEL: read_data_0_receive in sb at time 43350
# KERNEL: checking&&&&&&&&&*****sb got the wr and rd data at time 43350 loading......
# KERNEL: UVM_INFO /home/runner/axi_scoreboard.sv(76) @ 43350: uvm_test_top.envh.sb [scoreboard] wr_moniter at time 43350
# KERNEL: ----------------------------------------------------
# KERNEL: Name              Type              Size  Value     
# KERNEL: ----------------------------------------------------
# KERNEL: data_rcv[709][7]  write_xtn_master  -     @1034     
# KERNEL:   AWID            integral          4     'd0       
# KERNEL:   AWADDR          integral          32    'd0       
# KERNEL:   AWLEN           integral          4     'h0       
# KERNEL:   AWBURST         integral          2     'h0       
# KERNEL:   AWSIZE          integral          3     'h0       
# KERNEL:   WSTRB[0]        integral          4     'b10      
# KERNEL:   WSTRB[1]        integral          4     'b1100    
# KERNEL:   WSTRB[2]        integral          4     'b11      
# KERNEL:   WSTRB[3]        integral          4     'b1100    
# KERNEL:   WSTRB[4]        integral          4     'b11      
# KERNEL:   WSTRB[5]        integral          4     'b1100    
# KERNEL:   WSTRB[6]        integral          4     'b11      
# KERNEL:   WSTRB[7]        integral          4     'b1100    
# KERNEL:   WSTRB[8]        integral          4     'b11      
# KERNEL:   WSTRB[9]        integral          4     'b1100    
# KERNEL:   WSTRB[10]       integral          4     'b11      
# KERNEL:   WSTRB[11]       integral          4     'b1100    
# KERNEL:   MDATA[0]        integral          32    'h3a00    
# KERNEL:   MDATA[1]        integral          32    'h3eb30000
# KERNEL:   MDATA[2]        integral          32    'h1397    
# KERNEL:   MDATA[3]        integral          32    'h91e0000 
# KERNEL:   MDATA[4]        integral          32    'hbf2c    
# KERNEL:   MDATA[5]        integral          32    'heca00000
# KERNEL:   MDATA[6]        integral          32    'h86ee    
# KERNEL:   MDATA[7]        integral          32    'ha12a0000
# KERNEL:   MDATA[8]        integral          32    'h18f     
# KERNEL:   MDATA[9]        integral          32    'h9ff40000
# KERNEL:   MDATA[10]       integral          32    'h861e    
# KERNEL:   MDATA[11]       integral          32    'hc8120000
# KERNEL: ----------------------------------------------------
# KERNEL: UVM_INFO /home/runner/axi_scoreboard.sv(79) @ 43350: uvm_test_top.envh.sb [scoreboard] rd_moniter at time 43350
# KERNEL: ---------------------------------------------------
# KERNEL: Name              Type             Size  Value     
# KERNEL: ---------------------------------------------------
# KERNEL: data_rcv[709][7]  write_xtn_slave  -     @1031     
# KERNEL:   AWID            integral         4     'd0       
# KERNEL:   AWADDR          integral         32    'd0       
# KERNEL:   AWLEN           integral         4     'h0       
# KERNEL:   AWBURST         integral         2     'h0       
# KERNEL:   AWSIZE          integral         3     'h0       
# KERNEL:   WDATA[0]        integral         32    'h3a00    
# KERNEL:   WDATA[1]        integral         32    'h3eb30000
# KERNEL:   WDATA[2]        integral         32    'h1397    
# KERNEL:   WDATA[3]        integral         32    'h91e0000 
# KERNEL:   WDATA[4]        integral         32    'hbf2c    
# KERNEL:   WDATA[5]        integral         32    'heca00000
# KERNEL:   WDATA[6]        integral         32    'h86ee    
# KERNEL:   WDATA[7]        integral         32    'ha12a0000
# KERNEL:   WDATA[8]        integral         32    'h18f     
# KERNEL:   WDATA[9]        integral         32    'h9ff40000
# KERNEL:   WDATA[10]       integral         32    'h861e    
# KERNEL:   WDATA[11]       integral         32    'hc8120000
# KERNEL:   WSTRB[0]        integral         4     'b10      
# KERNEL:   WSTRB[1]        integral         4     'b1100    
# KERNEL:   WSTRB[2]        integral         4     'b11      
# KERNEL:   WSTRB[3]        integral         4     'b1100    
# KERNEL:   WSTRB[4]        integral         4     'b11      
# KERNEL:   WSTRB[5]        integral         4     'b1100    
# KERNEL:   WSTRB[6]        integral         4     'b11      
# KERNEL:   WSTRB[7]        integral         4     'b1100    
# KERNEL:   WSTRB[8]        integral         4     'b11      
# KERNEL:   WSTRB[9]        integral         4     'b1100    
# KERNEL:   WSTRB[10]       integral         4     'b11      
# KERNEL:   WSTRB[11]       integral         4     'b1100    
# KERNEL: ---------------------------------------------------
# KERNEL: UVM_INFO /home/runner/axi_scoreboard.sv(99) @ 43350: uvm_test_top.envh.sb [axi_scoreboard] DATA match[0]
# KERNEL: UVM_INFO /home/runner/axi_scoreboard.sv(99) @ 43350: uvm_test_top.envh.sb [axi_scoreboard] DATA match[1]
# KERNEL: UVM_INFO /home/runner/axi_scoreboard.sv(99) @ 43350: uvm_test_top.envh.sb [axi_scoreboard] DATA match[2]
# KERNEL: UVM_INFO /home/runner/axi_scoreboard.sv(99) @ 43350: uvm_test_top.envh.sb [axi_scoreboard] DATA match[3]
# KERNEL: UVM_INFO /home/runner/axi_scoreboard.sv(99) @ 43350: uvm_test_top.envh.sb [axi_scoreboard] DATA match[4]
# KERNEL: UVM_INFO /home/runner/axi_scoreboard.sv(99) @ 43350: uvm_test_top.envh.sb [axi_scoreboard] DATA match[5]
# KERNEL: UVM_INFO /home/runner/axi_scoreboard.sv(99) @ 43350: uvm_test_top.envh.sb [axi_scoreboard] DATA match[6]
# KERNEL: UVM_INFO /home/runner/axi_scoreboard.sv(99) @ 43350: uvm_test_top.envh.sb [axi_scoreboard] DATA match[7]
# KERNEL: UVM_INFO /home/runner/axi_scoreboard.sv(99) @ 43350: uvm_test_top.envh.sb [axi_scoreboard] DATA match[8]
# KERNEL: UVM_INFO /home/runner/axi_scoreboard.sv(99) @ 43350: uvm_test_top.envh.sb [axi_scoreboard] DATA match[9]
# KERNEL: UVM_INFO /home/runner/axi_scoreboard.sv(99) @ 43350: uvm_test_top.envh.sb [axi_scoreboard] DATA match[10]
# KERNEL: UVM_INFO /home/runner/axi_scoreboard.sv(99) @ 43350: uvm_test_top.envh.sb [axi_scoreboard] DATA match[11]
# KERNEL:    ***************************** SCORE BOARD RESULT FOR PACKET: 1 *************************************
# KERNEL:    *                                                                                                  *
# KERNEL:    *               TOTAL NO OF DATA VERIFIED WITH SUCCESS: 12                                         *
# KERNEL:    *               TOTAL NO OF DATA VERIFIED WITH FAILURE: 0                                          *
# KERNEL:    *               NO OF TRANS RECEIVED FORM WR_MONITOR: 1                                            *
# KERNEL:    *               NO OF TRANS RECEIVED FROM RD_MONITOR: 1                                            *
# KERNEL:    *               NO OF TRANS VERIFIED WITH SUCCESS : 1                                              *
# KERNEL:    *               NO OF TRANS VERIFIED WITH FAILURE: 0                                               *
# KERNEL:    *                                                                                                  *
# KERNEL:    ********************************##############################**************************************
# KERNEL:  
# KERNEL: 
# KERNEL: SLAVE A 1
# KERNEL: UVM_INFO /home/runner/master_monitor.sv(149) @ 43550: uvm_test_top.envh.m_agenth_top.m_agenth[0].monh [MASTER_MONITOR] printing from master monitor according to the response send by slave driver  
# KERNEL:  -----------------------------------------------------
# KERNEL: Name               Type              Size  Value     
# KERNEL: -----------------------------------------------------
# KERNEL: data_rcv[613][14]  write_xtn_master  -     @1018     
# KERNEL:   AWID             integral          4     'd0       
# KERNEL:   AWADDR           integral          32    'd0       
# KERNEL:   AWLEN            integral          4     'h0       
# KERNEL:   AWBURST          integral          2     'h0       
# KERNEL:   AWSIZE           integral          3     'h0       
# KERNEL:   WSTRB[0]         integral          4     'b10      
# KERNEL:   WSTRB[1]         integral          4     'b1100    
# KERNEL:   WSTRB[2]         integral          4     'b11      
# KERNEL:   WSTRB[3]         integral          4     'b1100    
# KERNEL:   WSTRB[4]         integral          4     'b11      
# KERNEL:   WSTRB[5]         integral          4     'b1100    
# KERNEL:   WSTRB[6]         integral          4     'b11      
# KERNEL:   WSTRB[7]         integral          4     'b1100    
# KERNEL:   WSTRB[8]         integral          4     'b11      
# KERNEL:   WSTRB[9]         integral          4     'b1100    
# KERNEL:   MDATA[0]         integral          32    'hf700    
# KERNEL:   MDATA[1]         integral          32    'h5b8b0000
# KERNEL:   MDATA[2]         integral          32    'hccbe    
# KERNEL:   MDATA[3]         integral          32    'h78bf0000
# KERNEL:   MDATA[4]         integral          32    'h1285    
# KERNEL:   MDATA[5]         integral          32    'h9ec40000
# KERNEL:   MDATA[6]         integral          32    'hcf24    
# KERNEL:   MDATA[7]         integral          32    'h2fb10000
# KERNEL:   MDATA[8]         integral          32    'h9804    
# KERNEL:   MDATA[9]         integral          32    'hae590000
# KERNEL: -----------------------------------------------------
# KERNEL: 
# KERNEL: SLAVE A 1
# KERNEL: UVM_INFO /home/runner/slave_monitor.sv(204) @ 43550: uvm_test_top.envh.s_agenth_top.s_agenth[0].monh [SLAVE_MONITOR] printing from slave monitor according to the response send by slave driver  
# KERNEL:  ----------------------------------------------------
# KERNEL: Name               Type             Size  Value     
# KERNEL: ----------------------------------------------------
# KERNEL: data_rcv[613][14]  write_xtn_slave  -     @1015     
# KERNEL:   AWID             integral         4     'd0       
# KERNEL:   AWADDR           integral         32    'd0       
# KERNEL:   AWLEN            integral         4     'h0       
# KERNEL:   AWBURST          integral         2     'h0       
# KERNEL:   AWSIZE           integral         3     'h0       
# KERNEL:   WDATA[0]         integral         32    'hf700    
# KERNEL:   WDATA[1]         integral         32    'h5b8b0000
# KERNEL:   WDATA[2]         integral         32    'hccbe    
# KERNEL:   WDATA[3]         integral         32    'h78bf0000
# KERNEL:   WDATA[4]         integral         32    'h1285    
# KERNEL:   WDATA[5]         integral         32    'h9ec40000
# KERNEL:   WDATA[6]         integral         32    'hcf24    
# KERNEL:   WDATA[7]         integral         32    'h2fb10000
# KERNEL:   WDATA[8]         integral         32    'h9804    
# KERNEL:   WDATA[9]         integral         32    'hae590000
# KERNEL:   WSTRB[0]         integral         4     'b10      
# KERNEL:   WSTRB[1]         integral         4     'b1100    
# KERNEL:   WSTRB[2]         integral         4     'b11      
# KERNEL:   WSTRB[3]         integral         4     'b1100    
# KERNEL:   WSTRB[4]         integral         4     'b11      
# KERNEL:   WSTRB[5]         integral         4     'b1100    
# KERNEL:   WSTRB[6]         integral         4     'b11      
# KERNEL:   WSTRB[7]         integral         4     'b1100    
# KERNEL:   WSTRB[8]         integral         4     'b11      
# KERNEL:   WSTRB[9]         integral         4     'b1100    
# KERNEL: ----------------------------------------------------
# KERNEL: 
# KERNEL: write_data_receive in sb at time 43550
# KERNEL: read_data_0_receive in sb at time 43550
# KERNEL: checking&&&&&&&&&*****sb got the wr and rd data at time 43550 loading......
# KERNEL: UVM_INFO /home/runner/axi_scoreboard.sv(76) @ 43550: uvm_test_top.envh.sb [scoreboard] wr_moniter at time 43550
# KERNEL: -----------------------------------------------------
# KERNEL: Name               Type              Size  Value     
# KERNEL: -----------------------------------------------------
# KERNEL: data_rcv[613][14]  write_xtn_master  -     @1018     
# KERNEL:   AWID             integral          4     'd0       
# KERNEL:   AWADDR           integral          32    'd0       
# KERNEL:   AWLEN            integral          4     'h0       
# KERNEL:   AWBURST          integral          2     'h0       
# KERNEL:   AWSIZE           integral          3     'h0       
# KERNEL:   WSTRB[0]         integral          4     'b10      
# KERNEL:   WSTRB[1]         integral          4     'b1100    
# KERNEL:   WSTRB[2]         integral          4     'b11      
# KERNEL:   WSTRB[3]         integral          4     'b1100    
# KERNEL:   WSTRB[4]         integral          4     'b11      
# KERNEL:   WSTRB[5]         integral          4     'b1100    
# KERNEL:   WSTRB[6]         integral          4     'b11      
# KERNEL:   WSTRB[7]         integral          4     'b1100    
# KERNEL:   WSTRB[8]         integral          4     'b11      
# KERNEL:   WSTRB[9]         integral          4     'b1100    
# KERNEL:   MDATA[0]         integral          32    'hf700    
# KERNEL:   MDATA[1]         integral          32    'h5b8b0000
# KERNEL:   MDATA[2]         integral          32    'hccbe    
# KERNEL:   MDATA[3]         integral          32    'h78bf0000
# KERNEL:   MDATA[4]         integral          32    'h1285    
# KERNEL:   MDATA[5]         integral          32    'h9ec40000
# KERNEL:   MDATA[6]         integral          32    'hcf24    
# KERNEL:   MDATA[7]         integral          32    'h2fb10000
# KERNEL:   MDATA[8]         integral          32    'h9804    
# KERNEL:   MDATA[9]         integral          32    'hae590000
# KERNEL: -----------------------------------------------------
# KERNEL: UVM_INFO /home/runner/axi_scoreboard.sv(79) @ 43550: uvm_test_top.envh.sb [scoreboard] rd_moniter at time 43550
# KERNEL: ----------------------------------------------------
# KERNEL: Name               Type             Size  Value     
# KERNEL: ----------------------------------------------------
# KERNEL: data_rcv[613][14]  write_xtn_slave  -     @1015     
# KERNEL:   AWID             integral         4     'd0       
# KERNEL:   AWADDR           integral         32    'd0       
# KERNEL:   AWLEN            integral         4     'h0       
# KERNEL:   AWBURST          integral         2     'h0       
# KERNEL:   AWSIZE           integral         3     'h0       
# KERNEL:   WDATA[0]         integral         32    'hf700    
# KERNEL:   WDATA[1]         integral         32    'h5b8b0000
# KERNEL:   WDATA[2]         integral         32    'hccbe    
# KERNEL:   WDATA[3]         integral         32    'h78bf0000
# KERNEL:   WDATA[4]         integral         32    'h1285    
# KERNEL:   WDATA[5]         integral         32    'h9ec40000
# KERNEL:   WDATA[6]         integral         32    'hcf24    
# KERNEL:   WDATA[7]         integral         32    'h2fb10000
# KERNEL:   WDATA[8]         integral         32    'h9804    
# KERNEL:   WDATA[9]         integral         32    'hae590000
# KERNEL:   WSTRB[0]         integral         4     'b10      
# KERNEL:   WSTRB[1]         integral         4     'b1100    
# KERNEL:   WSTRB[2]         integral         4     'b11      
# KERNEL:   WSTRB[3]         integral         4     'b1100    
# KERNEL:   WSTRB[4]         integral         4     'b11      
# KERNEL:   WSTRB[5]         integral         4     'b1100    
# KERNEL:   WSTRB[6]         integral         4     'b11      
# KERNEL:   WSTRB[7]         integral         4     'b1100    
# KERNEL:   WSTRB[8]         integral         4     'b11      
# KERNEL:   WSTRB[9]         integral         4     'b1100    
# KERNEL: ----------------------------------------------------
# KERNEL: UVM_INFO /home/runner/axi_scoreboard.sv(99) @ 43550: uvm_test_top.envh.sb [axi_scoreboard] DATA match[0]
# KERNEL: UVM_INFO /home/runner/axi_scoreboard.sv(99) @ 43550: uvm_test_top.envh.sb [axi_scoreboard] DATA match[1]
# KERNEL: UVM_INFO /home/runner/axi_scoreboard.sv(99) @ 43550: uvm_test_top.envh.sb [axi_scoreboard] DATA match[2]
# KERNEL: UVM_INFO /home/runner/axi_scoreboard.sv(99) @ 43550: uvm_test_top.envh.sb [axi_scoreboard] DATA match[3]
# KERNEL: UVM_INFO /home/runner/axi_scoreboard.sv(99) @ 43550: uvm_test_top.envh.sb [axi_scoreboard] DATA match[4]
# KERNEL: UVM_INFO /home/runner/axi_scoreboard.sv(99) @ 43550: uvm_test_top.envh.sb [axi_scoreboard] DATA match[5]
# KERNEL: UVM_INFO /home/runner/axi_scoreboard.sv(99) @ 43550: uvm_test_top.envh.sb [axi_scoreboard] DATA match[6]
# KERNEL: UVM_INFO /home/runner/axi_scoreboard.sv(99) @ 43550: uvm_test_top.envh.sb [axi_scoreboard] DATA match[7]
# KERNEL: UVM_INFO /home/runner/axi_scoreboard.sv(99) @ 43550: uvm_test_top.envh.sb [axi_scoreboard] DATA match[8]
# KERNEL: UVM_INFO /home/runner/axi_scoreboard.sv(99) @ 43550: uvm_test_top.envh.sb [axi_scoreboard] DATA match[9]
# KERNEL:    ***************************** SCORE BOARD RESULT FOR PACKET: 2 *************************************
# KERNEL:    *                                                                                                  *
# KERNEL:    *               TOTAL NO OF DATA VERIFIED WITH SUCCESS: 22                                         *
# KERNEL:    *               TOTAL NO OF DATA VERIFIED WITH FAILURE: 0                                          *
# KERNEL:    *               NO OF TRANS RECEIVED FORM WR_MONITOR: 2                                            *
# KERNEL:    *               NO OF TRANS RECEIVED FROM RD_MONITOR: 2                                            *
# KERNEL:    *               NO OF TRANS VERIFIED WITH SUCCESS : 2                                              *
# KERNEL:    *               NO OF TRANS VERIFIED WITH FAILURE: 0                                               *
# KERNEL:    *                                                                                                  *
# KERNEL:    ********************************##############################**************************************
# KERNEL:  
# KERNEL: 
# KERNEL: UVM_INFO /home/runner/master_monitor.sv(149) @ 43730: uvm_test_top.envh.m_agenth_top.m_agenth[0].monh [MASTER_MONITOR] printing from master monitor according to the response send by slave driver  
# KERNEL:  ----------------------------------------------------
# KERNEL: Name              Type              Size  Value     
# KERNEL: ----------------------------------------------------
# KERNEL: data_rcv[947][8]  write_xtn_master  -     @1048     
# KERNEL:   AWID            integral          4     'd0       
# KERNEL:   AWADDR          integral          32    'd0       
# KERNEL:   AWLEN           integral          4     'h0       
# KERNEL:   AWBURST         integral          2     'h0       
# KERNEL:   AWSIZE          integral          3     'h0       
# KERNEL:   WSTRB[0]        integral          4     'b1000    
# KERNEL:   WSTRB[1]        integral          4     'b11      
# KERNEL:   WSTRB[2]        integral          4     'b1100    
# KERNEL:   WSTRB[3]        integral          4     'b11      
# KERNEL:   WSTRB[4]        integral          4     'b1100    
# KERNEL:   WSTRB[5]        integral          4     'b11      
# KERNEL:   WSTRB[6]        integral          4     'b1100    
